time;V(b+);V(b-);
0;-0.802399;16.3875;
1e-08;-0.802435;16.3875;
2e-08;-0.802471;16.3875;
4e-08;-0.802544;16.3876;
8e-08;-0.802688;16.3876;
1.6e-07;-0.802978;16.3878;
3.2e-07;-0.803556;16.3881;
6.4e-07;-0.80471;16.3888;
1.28e-06;-0.807011;16.3901;
2.28e-06;-0.810587;16.3921;
3.28e-06;-0.814142;16.394;
4.28e-06;-0.817676;16.3959;
5.28e-06;-0.821191;16.3977;
6.28e-06;-0.824687;16.3995;
7.28e-06;-0.828165;16.4012;
8.28e-06;-0.831627;16.4029;
9.28e-06;-0.835073;16.4046;
1.028e-05;-0.838504;16.4062;
1.128e-05;-0.841921;16.4078;
1.228e-05;-0.845324;16.4093;
1.328e-05;-0.848714;16.4108;
1.428e-05;-0.852091;16.4123;
1.528e-05;-0.855456;16.4137;
1.628e-05;-0.85881;16.4151;
1.728e-05;-0.862153;16.4165;
1.828e-05;-0.865485;16.4179;
1.928e-05;-0.868807;16.4192;
2.028e-05;-0.872119;16.4206;
2.128e-05;-0.875421;16.4219;
2.228e-05;-0.878715;16.4231;
2.328e-05;-0.882;16.4244;
2.428e-05;-0.885277;16.4256;
2.528e-05;-0.888545;16.4268;
2.628e-05;-0.891806;16.428;
2.728e-05;-0.895059;16.4292;
2.828e-05;-0.898304;16.4304;
2.928e-05;-0.901543;16.4315;
3.028e-05;-0.904774;16.4327;
3.128e-05;-0.908;16.4338;
3.228e-05;-0.911218;16.4349;
3.328e-05;-0.914431;16.4359;
3.428e-05;-0.917637;16.437;
3.528e-05;-0.920837;16.438;
3.628e-05;-0.924032;16.439;
3.728e-05;-0.927221;16.44;
3.828e-05;-0.930405;16.441;
3.928e-05;-0.933584;16.442;
4.028e-05;-0.936758;16.443;
4.128e-05;-0.939926;16.4439;
4.228e-05;-0.94309;16.4449;
4.328e-05;-0.94625;16.4458;
4.428e-05;-0.949404;16.4467;
4.528e-05;-0.952554;16.4476;
4.628e-05;-0.9557;16.4486;
4.728e-05;-0.958842;16.4494;
4.828e-05;-0.96198;16.4503;
4.928e-05;-0.965113;16.4512;
5e-05;-0.967367;16.4518;
5.01e-05;-0.967367;16.4518;
5.03e-05;-0.967367;16.4518;
5.07e-05;-0.967367;16.4518;
5.15e-05;-0.967367;16.4518;
5.25e-05;-0.967367;16.4518;
5.35e-05;-0.967367;16.4518;
5.45e-05;-0.967367;16.4518;
5.55e-05;-0.967367;16.4518;
5.65e-05;-0.967367;16.4518;
5.75e-05;-0.967367;16.4518;
5.85e-05;-0.967367;16.4518;
5.95e-05;-0.967367;16.4518;
6.05e-05;-0.967367;16.4518;
6.15e-05;-0.967367;16.4518;
6.25e-05;-0.967367;16.4518;
6.35e-05;-0.967367;16.4518;
6.45e-05;-0.967367;16.4518;
6.55e-05;-0.967367;16.4518;
6.65e-05;-0.967367;16.4518;
6.75e-05;-0.967367;16.4518;
6.85e-05;-0.967367;16.4518;
6.95e-05;-0.967367;16.4518;
7.05e-05;-0.967367;16.4518;
7.15e-05;-0.967367;16.4518;
7.25e-05;-0.967367;16.4518;
7.35e-05;-0.967367;16.4518;
7.45e-05;-0.967367;16.4518;
7.55e-05;-0.967367;16.4518;
7.65e-05;-0.967367;16.4518;
7.75e-05;-0.967367;16.4518;
7.85e-05;-0.967367;16.4518;
7.95e-05;-0.967367;16.4518;
8.05e-05;-0.967367;16.4518;
8.15e-05;-0.967367;16.4518;
8.25e-05;-0.967367;16.4518;
8.35e-05;-0.967367;16.4518;
8.45e-05;-0.967367;16.4518;
8.55e-05;-0.967367;16.4518;
8.65e-05;-0.967367;16.4518;
8.75e-05;-0.967367;16.4518;
8.85e-05;-0.967367;16.4518;
8.95e-05;-0.967367;16.4518;
9.05e-05;-0.967367;16.4518;
9.15e-05;-0.967367;16.4518;
9.25e-05;-0.967367;16.4518;
9.35e-05;-0.967367;16.4518;
9.45e-05;-0.967367;16.4518;
9.55e-05;-0.967367;16.4518;
9.65e-05;-0.967367;16.4518;
9.75e-05;-0.967367;16.4518;
9.85e-05;-0.967367;16.4518;
9.95e-05;-0.967367;16.4518;
0.0001005;-0.967367;16.4518;
0.0001015;-0.967367;16.4518;
0.0001025;-0.967367;16.4518;
0.0001035;-0.967367;16.4518;
0.0001045;-0.967367;16.4518;
0.0001055;-0.967367;16.4518;
0.0001065;-0.967367;16.4518;
0.0001075;-0.967367;16.4518;
0.0001085;-0.967367;16.4518;
0.0001095;-0.967367;16.4518;
0.0001105;-0.967367;16.4518;
0.0001115;-0.967367;16.4518;
0.0001125;-0.967367;16.4518;
0.0001135;-0.967367;16.4518;
0.0001145;-0.967367;16.4518;
0.0001155;-0.967367;16.4518;
0.0001165;-0.967367;16.4518;
0.0001175;-0.967367;16.4518;
0.0001185;-0.967367;16.4518;
0.0001195;-0.967367;16.4518;
0.0001205;-0.967367;16.4518;
0.0001215;-0.967367;16.4518;
0.0001225;-0.967367;16.4518;
0.0001235;-0.967367;16.4518;
0.0001245;-0.967367;16.4518;
0.000125;-0.967367;16.4518;
0.0001251;-0.967367;16.4518;
0.0001253;-0.967367;16.4518;
0.0001257;-0.967367;16.4489;
0.0001265;-0.967367;16.4346;
0.000127;-0.967367;16.4196;
0.0001271;-0.967367;16.4177;
0.0001273;-0.967367;16.4158;
0.0001277;-0.967367;16.4158;
0.0001285;-0.967367;16.4158;
0.0001295;-0.967367;16.4158;
0.0001305;-0.967367;16.4158;
0.0001315;-0.967367;16.4158;
0.0001325;-0.967367;16.4158;
0.0001335;-0.967367;16.4158;
0.0001345;-0.967367;16.4158;
0.0001355;-0.967367;16.4158;
0.0001365;-0.967367;16.4158;
0.0001375;-0.967367;16.4158;
0.0001385;-0.967367;16.4158;
0.0001395;-0.967367;16.4158;
0.0001405;-0.967367;16.4158;
0.0001415;-0.967367;16.4155;
0.0001425;-0.967367;16.4085;
0.0001435;-0.967369;16.1552;
0.0001445;-0.967378;14.0885;
0.0001455;-0.967415;5.95009;
0.000146182;-0.967325;5.54406;
0.000146798;-0.967368;8.63236;
0.000147281;-0.967363;8.81948;
0.000147767;-0.96737;8.88541;
0.000148449;-0.967362;9.12422;
0.000149449;-0.967371;9.3237;
0.000150449;-0.967361;9.64364;
0.000151449;-0.967372;9.82554;
0.000152449;-0.967361;9.93266;
0.000153449;-0.967382;8.72266;
0.000154449;-0.967376;5.88342;
0.000155152;-0.967361;5.69487;
0.000155911;-0.967358;7.05962;
0.000156609;-0.967377;6.99866;
0.000157375;-0.967364;6.38871;
0.000158375;-0.967376;5.75763;
0.000159375;-0.967358;5.83371;
0.000160375;-0.967378;5.75188;
0.000161375;-0.967356;5.82967;
0.000162375;-0.967379;5.75338;
0.000163375;-0.967355;5.82705;
0.000164375;-0.96738;5.75468;
0.000165375;-0.967354;5.82515;
0.000166375;-0.967381;5.75576;
0.000167375;-0.967352;5.82372;
0.000168375;-0.967383;5.75666;
0.000169375;-0.967351;5.82262;
0.000170375;-0.967384;5.75742;
0.000171375;-0.96735;5.82176;
0.000172375;-0.967385;5.75806;
0.000173375;-0.967349;5.82108;
0.000174375;-0.967386;5.75859;
0.000175375;-0.967348;5.82053;
0.000176375;-0.967387;5.75904;
0.000177375;-0.967347;5.82008;
0.000178375;-0.967388;5.75942;
0.000179375;-0.967345;5.81971;
0.000180375;-0.967389;5.75973;
0.000181375;-0.967344;5.8194;
0.000182375;-0.967391;5.76;
0.000183375;-0.967343;5.81915;
0.000184375;-0.967392;5.76024;
0.000185375;-0.967342;5.81893;
0.000186375;-0.967393;5.76043;
0.000187375;-0.967341;5.81874;
0.000188375;-0.967394;5.76061;
0.000189375;-0.96734;5.81858;
0.000190375;-0.967395;5.76076;
0.000191375;-0.967339;5.81844;
0.000192375;-0.967396;5.7609;
0.000193375;-0.967338;5.81831;
0.000194375;-0.967397;5.76102;
0.000195375;-0.967337;5.81819;
0.000196375;-0.967398;5.76113;
0.000197375;-0.967336;5.81809;
0.000198375;-0.967399;5.76123;
0.000199375;-0.967335;5.81799;
0.000200375;-0.9674;5.76132;
0.000201375;-0.967334;5.81791;
0.000202375;-0.967401;5.76141;
0.000203375;-0.967333;5.81782;
0.000204375;-0.967402;5.76149;
0.000205375;-0.967332;5.81774;
0.000206375;-0.967403;5.76157;
0.000207375;-0.967331;5.81766;
0.000208375;-0.967404;5.76164;
0.000209375;-0.96733;5.81759;
0.000210375;-0.967405;5.76172;
0.000211375;-0.967329;5.81752;
0.000212375;-0.967406;5.76179;
0.000213375;-0.967328;5.81745;
0.000214375;-0.967407;5.76185;
0.000215375;-0.967327;5.81738;
0.000216375;-0.967408;5.76192;
0.000217375;-0.967326;5.81732;
0.000218375;-0.967409;5.76199;
0.000219375;-0.967325;5.81725;
0.000220375;-0.96741;5.76205;
0.000221375;-0.967324;5.81719;
0.000222375;-0.967411;5.76212;
0.000223375;-0.967323;5.81712;
0.000224375;-0.967412;5.76218;
0.000225375;-0.967322;5.81706;
0.000226375;-0.967413;5.76225;
0.000227375;-0.967321;5.817;
0.000228375;-0.967414;5.76231;
0.000229375;-0.96732;5.81693;
0.000230375;-0.967415;5.76237;
0.000231375;-0.967319;5.81687;
0.000232375;-0.967416;5.76243;
0.000233375;-0.967318;5.81681;
0.000234375;-0.967417;5.76249;
0.000235375;-0.967317;5.81675;
0.000236375;-0.967418;5.76255;
0.000237375;-0.967316;5.81668;
0.000238375;-0.967419;5.76262;
0.000239375;-0.967315;5.81662;
0.000240375;-0.96742;5.76268;
0.000241375;-0.967314;5.81656;
0.000242375;-0.967421;5.76274;
0.000243375;-0.967313;5.8165;
0.000244375;-0.967421;5.7628;
0.000245375;-0.967312;5.81644;
0.000246375;-0.967422;5.76286;
0.000247375;-0.967311;5.81638;
0.000248375;-0.967423;5.76292;
0.000249375;-0.96731;5.81632;
0.000250375;-0.967424;5.76298;
0.000251375;-0.967309;5.81626;
0.000252375;-0.967425;5.76304;
0.000253375;-0.967308;5.8162;
0.000254375;-0.967426;5.7631;
0.000255375;-0.967308;5.81614;
0.000256375;-0.967427;5.76316;
0.000257375;-0.967307;5.81608;
0.000258375;-0.967428;5.76322;
0.000259375;-0.967306;5.81602;
0.000260375;-0.967429;5.76328;
0.000261375;-0.967305;5.81596;
0.000262375;-0.96743;5.76334;
0.000263375;-0.967304;5.8159;
0.000264375;-0.967431;5.7634;
0.000265375;-0.967303;5.81584;
0.000266375;-0.967432;5.76346;
0.000267375;-0.967302;5.81579;
0.000268375;-0.967433;5.76352;
0.000269375;-0.967301;5.81573;
0.000270375;-0.967434;5.76357;
0.000271375;-0.9673;5.81567;
0.000272375;-0.967435;5.76363;
0.000273375;-0.967299;5.81561;
0.000274375;-0.967436;5.76369;
0.000275375;-0.967298;5.81555;
0.000276375;-0.967437;5.76375;
0.000277375;-0.967297;5.81549;
0.000278375;-0.967437;5.76381;
0.000279375;-0.967296;5.81543;
0.000280375;-0.967438;5.76387;
0.000281375;-0.967295;5.81538;
0.000282375;-0.967439;5.76392;
0.000283375;-0.967294;5.81532;
0.000284375;-0.96744;5.76398;
0.000285375;-0.967294;5.81526;
0.000286375;-0.967441;5.76404;
0.000287375;-0.967293;5.8152;
0.000288375;-0.967442;5.7641;
0.000289375;-0.967292;5.81514;
0.000290375;-0.967443;5.76416;
0.000291375;-0.967291;5.81509;
0.000292375;-0.967444;5.76421;
0.000293375;-0.96729;5.81503;
0.000294375;-0.967445;5.76427;
0.000295375;-0.967289;5.81497;
0.000296375;-0.967446;5.76433;
0.000297375;-0.967288;5.81492;
0.000298375;-0.967447;5.76439;
0.000299375;-0.967287;5.81486;
0.000300375;-0.967447;5.76444;
0.000301375;-0.967286;5.8148;
0.000302375;-0.967448;5.7645;
0.000303375;-0.967285;5.81474;
0.000304375;-0.967449;5.76456;
0.000305375;-0.967285;5.81469;
0.000306375;-0.96745;5.76461;
0.000307375;-0.967284;5.81463;
0.000308375;-0.967451;5.76467;
0.000309375;-0.967283;5.81457;
0.000310375;-0.967452;5.76473;
0.000311375;-0.967282;5.81452;
0.000312375;-0.967453;5.76478;
0.000313375;-0.967281;5.81446;
0.000314375;-0.967454;5.76484;
0.000315375;-0.96728;5.8144;
0.000316375;-0.967454;5.76489;
0.000317375;-0.967279;5.81435;
0.000318375;-0.967455;5.76495;
0.000319375;-0.967278;5.81429;
0.000320375;-0.967456;5.76501;
0.000321375;-0.967277;5.81424;
0.000322375;-0.967457;5.76506;
0.000323375;-0.967277;5.81418;
0.000324375;-0.967458;5.76512;
0.000325375;-0.967276;5.81413;
0.000326375;-0.967459;5.76517;
0.000327375;-0.967275;5.81407;
0.000328375;-0.96746;5.76523;
0.000329375;-0.967274;5.81401;
0.000330375;-0.967461;5.76528;
0.000331375;-0.967273;5.81396;
0.000332375;-0.967461;5.76534;
0.000333375;-0.967272;5.8139;
0.000334375;-0.967462;5.76539;
0.000335375;-0.967271;5.81385;
0.000336375;-0.967463;5.76545;
0.000337375;-0.96727;5.81379;
0.000338375;-0.967464;5.7655;
0.000339375;-0.96727;5.81374;
0.000340375;-0.967465;5.76556;
0.000341375;-0.967269;5.81368;
0.000342375;-0.967466;5.76561;
0.000343375;-0.967268;5.81363;
0.000344375;-0.967467;5.76567;
0.000345375;-0.967267;5.81357;
0.000346375;-0.967467;5.76572;
0.000347375;-0.967266;5.81352;
0.000348375;-0.967468;5.76578;
0.000349375;-0.967265;5.81347;
0.000350375;-0.967469;5.76583;
0.000351375;-0.967265;5.81341;
0.000352375;-0.96747;5.76589;
0.000353375;-0.967264;5.81336;
0.000354375;-0.967471;5.76594;
0.000355375;-0.967263;5.8133;
0.000356375;-0.967472;5.76599;
0.000357375;-0.967262;5.81325;
0.000358375;-0.967472;5.76605;
0.000359375;-0.967261;5.8132;
0.000360375;-0.967473;5.7661;
0.000361375;-0.96726;5.81314;
0.000362375;-0.967474;5.76616;
0.000363375;-0.967259;5.81309;
0.000364375;-0.967475;5.76621;
0.000365375;-0.967259;5.81304;
0.000366375;-0.967476;5.76626;
0.000367375;-0.967258;5.81298;
0.000368375;-0.967477;5.76632;
0.000369375;-0.967257;5.81293;
0.000370375;-0.967477;5.76637;
0.000371375;-0.967256;5.81288;
0.000372375;-0.967478;5.76642;
0.000373375;-0.967255;5.81282;
0.000374375;-0.967479;5.76647;
0.000375375;-0.967255;5.81277;
0.000376375;-0.96748;5.76653;
0.000377375;-0.967254;5.81272;
0.000378375;-0.967481;5.76658;
0.000379375;-0.967253;5.81266;
0.000380375;-0.967481;5.76663;
0.000381375;-0.967252;5.81261;
0.000382375;-0.967482;5.76669;
0.000383375;-0.967251;5.81256;
0.000384375;-0.967483;5.76674;
0.000385375;-0.96725;5.81251;
0.000386375;-0.967484;5.76679;
0.000387375;-0.96725;5.81245;
0.000388375;-0.967485;5.76684;
0.000389375;-0.967249;5.8124;
0.000390375;-0.967485;5.76689;
0.000391375;-0.967248;5.81235;
0.000392375;-0.967486;5.76695;
0.000393375;-0.967247;5.8123;
0.000394375;-0.967487;5.767;
0.000395375;-0.967246;5.81225;
0.000396375;-0.967488;5.76705;
0.000397375;-0.967246;5.81219;
0.000398375;-0.967489;5.7671;
0.000399375;-0.967245;5.81214;
0.000400375;-0.967489;5.76715;
0.000401375;-0.967244;5.81209;
0.000402375;-0.96749;5.7672;
0.000403375;-0.967243;5.81204;
0.000404375;-0.967491;5.76726;
0.000405375;-0.967242;5.81199;
0.000406375;-0.967492;5.76731;
0.000407375;-0.967242;5.81194;
0.000408375;-0.967493;5.76736;
0.000409375;-0.967241;5.81189;
0.000410375;-0.967493;5.76741;
0.000411375;-0.96724;5.81184;
0.000412375;-0.967494;5.76746;
0.000413375;-0.967239;5.81178;
0.000414375;-0.967495;5.76751;
0.000415375;-0.967239;5.81173;
0.000416375;-0.967496;5.76756;
0.000417375;-0.967238;5.81168;
0.000418375;-0.967496;5.76761;
0.000419375;-0.967237;5.81163;
0.000420375;-0.967497;5.76766;
0.000421375;-0.967236;5.81158;
0.000422375;-0.967498;5.76771;
0.000423375;-0.967235;5.81153;
0.000424375;-0.967499;5.76776;
0.000425375;-0.967235;5.81148;
0.000426375;-0.9675;5.76781;
0.000427375;-0.967234;5.81143;
0.000428375;-0.9675;5.76786;
0.000429375;-0.967233;5.81138;
0.000430375;-0.967501;5.76791;
0.000431375;-0.967232;5.81133;
0.000432375;-0.967502;5.76796;
0.000433375;-0.967232;5.81128;
0.000434375;-0.967503;5.76801;
0.000435375;-0.967231;5.81123;
0.000436375;-0.967503;5.76806;
0.000437375;-0.96723;5.81118;
0.000438375;-0.967504;5.76811;
0.000439375;-0.967229;5.81113;
0.000440375;-0.967505;5.76816;
0.000441375;-0.967229;5.81108;
0.000442375;-0.967506;5.76821;
0.000443375;-0.967228;5.81103;
0.000444375;-0.967506;5.76826;
0.000445375;-0.967227;5.81098;
0.000446375;-0.967507;5.76831;
0.000447375;-0.967226;5.81093;
0.000448375;-0.967508;5.76836;
0.000449375;-0.967226;5.81089;
0.000450375;-0.967509;5.76841;
0.000451375;-0.967225;5.81084;
0.000452375;-0.967509;5.76846;
0.000453375;-0.967224;5.81079;
0.000454375;-0.96751;5.76851;
0.000455375;-0.967223;5.81074;
0.000456375;-0.967511;5.76856;
0.000457375;-0.967223;5.81069;
0.000458375;-0.967511;5.7686;
0.000459375;-0.967222;5.81064;
0.000460375;-0.967512;5.76865;
0.000461375;-0.967221;5.81059;
0.000462375;-0.967513;5.7687;
0.000463375;-0.96722;5.81054;
0.000464375;-0.967514;5.76875;
0.000465375;-0.96722;5.8105;
0.000466375;-0.967514;5.7688;
0.000467375;-0.967219;5.81045;
0.000468375;-0.967515;5.76885;
0.000469375;-0.967218;5.8104;
0.000470375;-0.967516;5.76889;
0.000471375;-0.967217;5.81035;
0.000472375;-0.967517;5.76894;
0.000473375;-0.967217;5.8103;
0.000474375;-0.967517;5.76899;
0.000475375;-0.967216;5.81026;
0.000476375;-0.967518;5.76904;
0.000477375;-0.967215;5.81021;
0.000478375;-0.967519;5.76908;
0.000479375;-0.967215;5.81016;
0.000480375;-0.967519;5.76913;
0.000481375;-0.967214;5.81011;
0.000482375;-0.96752;5.76918;
0.000483375;-0.967213;5.81007;
0.000484375;-0.967521;5.76923;
0.000485375;-0.967212;5.81002;
0.000486375;-0.967522;5.76927;
0.000487375;-0.967212;5.80997;
0.000488375;-0.967522;5.76932;
0.000489375;-0.967211;5.80992;
0.000490375;-0.967523;5.76937;
0.000491375;-0.96721;5.80988;
0.000492375;-0.967524;5.76942;
0.000493375;-0.96721;5.80983;
0.000494375;-0.967524;5.76946;
0.000495375;-0.967209;5.80978;
0.000496375;-0.967525;5.76951;
0.000497375;-0.967208;5.80974;
0.000498375;-0.967526;5.76956;
0.000499375;-0.967207;5.80969;
0.0005;-0.967527;5.76962;
0.0005001;-0.967053;5.78948;
0.0005003;-0.966429;5.78942;
0.000500501;-0.965799;5.78912;
0.000500709;-0.965149;5.78905;
0.000501126;-0.963841;5.78856;
0.000501959;-0.96123;5.78791;
0.000502959;-0.95809;5.78687;
0.000503959;-0.954949;5.78605;
0.000504959;-0.9518;5.78499;
0.000505959;-0.948651;5.78415;
0.000506959;-0.945493;5.78307;
0.000507959;-0.942335;5.78222;
0.000508959;-0.939168;5.78111;
0.000509959;-0.936;5.78023;
0.000510959;-0.932823;5.77911;
0.000511959;-0.929645;5.7782;
0.000512959;-0.926458;5.77705;
0.000513959;-0.923269;5.77612;
0.000514959;-0.920071;5.77495;
0.000515959;-0.916871;5.77399;
0.000516959;-0.913661;5.77278;
0.000517959;-0.91045;5.77179;
0.000518959;-0.907227;5.77054;
0.000519959;-0.904003;5.76948;
0.000520959;-0.900767;5.7682;
0.000521959;-0.897529;5.76711;
0.000522959;-0.89428;5.7658;
0.000523959;-0.891027;5.76467;
0.000524959;-0.887762;5.76332;
0.000525959;-0.884495;5.76216;
0.000526959;-0.881214;5.76078;
0.000527959;-0.877929;5.75957;
0.000528959;-0.874631;5.75815;
0.000529959;-0.871328;5.7569;
0.000530959;-0.868011;5.75543;
0.000531959;-0.86469;5.75414;
0.000532959;-0.861352;5.75262;
0.000533959;-0.85801;5.75128;
0.000534959;-0.85465;5.74971;
0.000535959;-0.851285;5.74831;
0.000536959;-0.847902;5.74668;
0.000537959;-0.844512;5.74522;
0.000538959;-0.841103;5.74353;
0.000539959;-0.837686;5.742;
0.000540959;-0.834249;5.74024;
0.000541959;-0.830802;5.73863;
0.000542959;-0.827333;5.73679;
0.000543959;-0.823854;5.7351;
0.000544959;-0.82035;5.73316;
0.000545959;-0.816834;5.73138;
0.000546959;-0.813292;5.72934;
0.000547959;-0.809736;5.72745;
0.000548959;-0.80615;5.7253;
0.000549959;-0.802548;5.72328;
0.00055;-0.802397;5.7231;
0.000550081;-0.802399;5.72315;
0.000550244;-0.802399;5.72314;
0.00055057;-0.802399;5.72313;
0.000551221;-0.802399;5.72312;
0.000552221;-0.802399;5.72312;
0.000553221;-0.802399;5.72312;
0.000554221;-0.802399;5.72311;
0.000555221;-0.802399;5.72311;
0.000556221;-0.802399;5.72311;
0.000557221;-0.802399;5.72311;
0.000558221;-0.802399;5.72311;
0.000559221;-0.802399;5.72311;
0.000560221;-0.802399;5.72311;
0.000561221;-0.802399;5.72311;
0.000562221;-0.802399;5.72311;
0.000563221;-0.802399;5.72311;
0.000564221;-0.802399;5.72311;
0.000565221;-0.802399;5.72311;
0.000566221;-0.802399;5.72311;
0.000567221;-0.802399;5.72311;
0.000568221;-0.802399;5.72311;
0.000569221;-0.802399;5.72311;
0.000570221;-0.802399;5.72311;
0.000571221;-0.802399;5.72311;
0.000572221;-0.802399;5.72311;
0.000573221;-0.802399;5.72311;
0.000574221;-0.802399;5.72311;
0.000575221;-0.802399;5.72311;
0.000576221;-0.802399;5.72311;
0.000577221;-0.802399;5.72311;
0.000578221;-0.802399;5.72311;
0.000579221;-0.802399;5.72311;
0.000580221;-0.802399;5.72311;
0.000581221;-0.802399;5.72311;
0.000582221;-0.802399;5.72311;
0.000583221;-0.802399;5.72311;
0.000584221;-0.802399;5.72311;
0.000585221;-0.802399;5.72311;
0.000586221;-0.802399;5.72311;
0.000587221;-0.802399;5.72311;
0.000588221;-0.802399;5.72311;
0.000589221;-0.802399;5.72311;
0.000590221;-0.802399;5.72311;
0.000591221;-0.802399;5.72311;
0.000592221;-0.802399;5.72311;
0.000593221;-0.802399;5.72311;
0.000594221;-0.802399;5.72311;
0.000595221;-0.802399;5.72311;
0.000596221;-0.802399;5.72311;
0.000597221;-0.802399;5.72311;
0.000598221;-0.802399;5.72311;
0.000599221;-0.802399;5.72311;
0.000600221;-0.802399;5.72311;
0.000601221;-0.802399;5.72311;
0.000602221;-0.802399;5.72311;
0.000603221;-0.802399;5.72311;
0.000604221;-0.802399;5.72311;
0.000605221;-0.802399;5.72311;
0.000606221;-0.802399;5.72311;
0.000607221;-0.802399;5.72311;
0.000608221;-0.802399;5.72311;
0.000609221;-0.802399;5.72311;
0.000610221;-0.802399;5.72311;
0.000611221;-0.802399;5.72311;
0.000612221;-0.802399;5.72311;
0.000613221;-0.802399;5.72311;
0.000614221;-0.802399;5.72311;
0.000615221;-0.802399;5.72311;
0.000616221;-0.802399;5.72311;
0.000617221;-0.802399;5.72311;
0.000618221;-0.802399;5.72311;
0.000619221;-0.802399;5.72311;
0.000620221;-0.802399;5.72311;
0.000621221;-0.802399;5.72311;
0.000622221;-0.802399;5.72311;
0.000623221;-0.802399;5.72311;
0.000624221;-0.802399;5.72311;
0.000625;-0.802399;5.72311;
0.0006251;-0.802399;5.72384;
0.0006253;-0.802399;5.72562;
0.0006257;-0.802399;5.72993;
0.0006265;-0.802399;5.74836;
0.000627;-0.802397;5.79485;
0.0006271;-0.802397;5.81277;
0.0006273;-0.802396;5.85546;
0.0006277;-0.802395;5.98066;
0.0006285;-0.802393;6.36152;
0.0006295;-0.802391;7.01232;
